Circuit: * C:\Users\J-Devil\Documents\GitHub\Elektroniikan_perusteet\NTC_lämpötila_anturi.asc

Direct Newton iteration failed to find .op point.  (Use ".option noopiter" to skip.)
Starting Gmin stepping
Gmin = 10
Gmin = 1.07374
Gmin = 0.115292
Gmin = 0.0123794
Gmin = 0.00132923
Gmin = 0.000142725
Gmin = 1.5325e-005
Gmin = 1.6455e-006
vernier = 0.5
Gmin = 3.40827e-007
vernier = 0.666667
vernier = 0.333333
vernier = 0.166667
Gmin = 1.29208e-007
vernier = 0.0833333
vernier = 0.0416667
vernier = 0.0208333
vernier = 0.0104167
vernier = 0.0138889
Gmin = 1.27097e-007
vernier = 0.0185185
Gmin = 1.22062e-007
vernier = 0.0246913
vernier = 0.0329218
Gmin = 1.14251e-007
vernier = 0.0438957
vernier = 0.0585276
Gmin = 1.02904e-007
vernier = 0.0780367
Gmin = 8.68826e-008
vernier = 0.104049
vernier = 0.138732
Gmin = 6.59485e-008
vernier = 0.184976
vernier = 0.246634
Gmin = 4.27563e-008
vernier = 0.328846
Gmin = 2.13558e-008
vernier = 0.438461
vernier = 0.584614
Gmin = 7.02167e-009
vernier = 0.779486
vernier = 1
Gmin = 1.28196e-009
Gmin = 1.37649e-010
Gmin = 1.478e-011
Gmin = 1.58699e-012
Gmin = 1.70402e-013
Gmin = 0
Gmin stepping succeeded in finding the operating point.

Semiconductor Device Operating Points:
                        --- Diodes ---
Name:    d:u3:4      d:u3:1      d:u2:4      d:u2:1      d:u1:4
Model:    u3:di       u3:x        u2:di       u2:x        u1:di
Id:     -6.70e-15   -6.65e-15   -1.00e-14   -3.51e-14    4.17e-15
Vd:     -6.69e-06   -3.32e-03   -9.99e-06   -1.75e-02    4.16e-06
Req:     1.00e-09    1.00e-12    1.00e-09    1.00e-12    1.00e-09
CAP:     0.00e+00    0.00e+00    0.00e+00    0.00e+00    0.00e+00

Name:    d:u1:1
Model:    u1:x
Id:      4.17e-14
Vd:      2.09e-02
Req:     1.00e-12
CAP:     0.00e+00

                        --- VDMOSFET Transistors ---
Name:        m:u3:2      m:u3:1      m:u2:2      m:u2:1      m:u1:2
Model:        u3:p        u3:n        u2:p        u2:n        u1:p
Id:         -2.20e-03    2.30e-03   -1.99e-03    2.52e-03   -2.57e-03
Vgs:         3.33e-03    3.33e-03    1.75e-02    1.75e-02   -2.09e-02
Vds:        -2.00e+01    1.00e+01   -2.24e+01    7.56e+00   -1.19e+01
Vth:         3.00e-01   -3.00e-01    3.00e-01   -3.00e-01    3.00e-01
Gm:          1.48e-02    1.52e-02    1.41e-02    1.59e-02    1.60e-02
Gds:         0.00e+00    0.00e+00    0.00e+00    0.00e+00    0.00e+00
Cgs:         0.00e+00    0.00e+00    0.00e+00    0.00e+00    0.00e+00
Cgd:         0.00e+00    0.00e+00    0.00e+00    0.00e+00    0.00e+00
Cbody:       0.00e+00    0.00e+00    0.00e+00    0.00e+00    0.00e+00

Name:        m:u1:1
Model:        u1:n
Id:          1.95e-03
Vgs:        -2.09e-02
Vds:         1.81e+01
Vth:        -3.00e-01
Gm:          1.40e-02
Gds:         0.00e+00
Cgs:         0.00e+00
Cgd:         0.00e+00
Cbody:       0.00e+00



Date: Tue Feb 17 00:16:04 2015
Total elapsed time: 1.593 seconds.

tnom = 27
temp = 27
method = trap
totiter = 1094
traniter = 0
tranpoints = 0
accept = 0
rejected = 0
matrix size = 23
fillins = 17
solver = Normal
Thread vector: 24.7/17.9[2] 0.0/0.0[0] 3.1/2.5[2] 0.3/1.3[1]  2592/500
Matrix Compiler1: 2,26 KB object code size
Matrix Compiler2: off  [0.8]/1.1/1.2


